freq_thz,s11_real,s11_imag,s21_real,s21_imag,s11_db,s21_db,loss_power_est
0.05,-0.10390660162668265,-0.08742614900270165,0.6377824950635057,-0.7500627147516861,-17.342411230805435,-0.13514642098240207,0.012199499538851466
0.058125,-0.1299242839434735,-0.08153979020688655,0.5259052606352589,-0.8287221114810582,-16.28395479186078,-0.16212886285498768,0.013114261833329421
0.06625,-0.15434192412014197,-0.06928944920050219,0.4050641384705567,-0.8906962222817245,-15.432930836767557,-0.18898993930936733,0.013960826026553796
0.074375,-0.1756920468542901,-0.05128122147171992,0.27774362576728734,-0.9352045511566898,-14.74988135727952,-0.21477536985915507,0.01475346683797396
0.0825,-0.19271682424871497,-0.02843871105424253,0.14640724199288283,-0.9618279068766313,-14.208049895247042,-0.23857356460159912,0.015503462410419
0.09062500000000001,-0.2044284464003872,-0.0019365600506302354,0.013452275918493557,-0.9704660168037568,-13.788783725073376,-0.2595589590609114,0.01622000653915745
0.09875,-0.21015022615095563,0.026873689852218025,-0.1188177730012623,-0.9612940839598723,-13.478957443378599,-0.27702729489214845,0.016910708205199687
0.106875,-0.20953937069239228,0.05654060060528565,-0.24820580122992225,-0.934723714155883,-13.269460159488847,-0.29042313516948115,0.01758187104347364
0.115,-0.2025931441970452,0.08558914229284875,-0.37262269705347906,-0.8913720834843903,-13.154285513891896,-0.29935988271314873,0.018238651071218137
0.123125,-0.18964033277198777,0.11259387330869088,-0.490082487063948,-0.8320415697545838,-13.129989682869521,-0.3036326035398936,0.018885145953019378
0.13125,-0.1713196824745056,0.13624740501316993,-0.5986957307222212,-0.7577104899498306,-13.195394841971979,-0.30322394777765793,0.019524446458985212
0.13937500000000003,-0.1485465256551039,0.15542299001996124,-0.6966656192322257,-0.6695341437376447,-13.35147732908216,-0.2983033967835584,0.020158669238330873
0.14750000000000002,-0.12246835295471391,0.16923008926114422,-0.7822906933707302,-0.5688540816021669,-13.601419237597455,-0.2892199746346424,0.02078898432332199
0.155625,-0.09440981706478203,0.17706144002012475,-0.8539772865822366,-0.45721240004977803,-13.950834374739436,-0.2764884864111556,0.021415648142156574
0.16375,-0.06580771991988019,0.1786295940578721,-0.9102637218182057,-0.33636693836683185,-14.408215434910181,-0.2607693299601408,0.022038051641058543
0.171875,-0.03813703227374099,0.17399030392038392,-0.9498569287404368,-0.20830257683515296,-14.98570182568098,-0.24284201270466685,0.022654792318664185
0.18,-0.012829943329716785,0.16354972839300072,-0.9716805118099855,-0.07523353060257679,-15.700359343682921,-0.22357271915987662,0.02326377773848798
0.188125,0.008808739898110382,0.14805244191375322,-0.9749314631206087,0.0604082520042204,-16.576341867509917,-0.20387662757187613,0.02386236585208612
0.19624999999999998,0.02568502142217824,0.12854787804320428,-0.9591408456469966,0.19600259450905255,-17.64868728416889,-0.1846761480289158,0.024447543882415768
0.20437500000000003,0.036991773448381865,0.1063342391599751,-0.9242321456493876,0.3287908706411988,-18.970396382263047,-0.16685680052568516,0.025016142610744474
0.21250000000000002,0.04227034927893251,0.08288103930748535,-0.870569954972343,0.45594607937696585,-20.626802885238142,-0.15122298927939565,0.025565077095374478
0.22062500000000002,0.04145069003066517,0.05973409330238795,-0.7989915446565581,0.5746604136200922,-22.76846419002968,-0.138456355799263,0.026091598978635333
0.22875,0.034864023955759084,0.03840950167492241,-0.7108149755080113,0.6822446334258321,-25.70120197361866,-0.12907959959034965,0.02659354076989373
0.236875,0.023224611054430536,0.020285450693159665,-0.6078196877491543,0.7762311608643081,-30.218733423638575,-0.12342855392825218,0.027069530019315002
0.245,0.007580282813495528,0.006501887220684396,-0.492198762268293,0.8544714688942434,-40.01151428395878,-0.12163485365125035,0.027519152042311368
0.253125,-0.010764761921556822,-0.0021220628674958747,-0.36648571620342874,0.9152184397719304,-39.1943393600712,-0.12362075643682496,0.027943044070251943
0.26125,-0.030348014689872707,-0.005144786065529125,-0.23346208516648045,0.9571860180340035,-30.234341567923128,-0.1291066712360579,0.02834291085065055
0.26937500000000003,-0.04965820920240253,-0.0025278261343139544,-0.09605446851712082,0.9795814161786812,-26.068939747289228,-0.13763085222928528,0.028721460509108065
0.2775,-0.0672459644454328,0.005370983345484355,0.0427693038495892,0.982108777700387,-23.419058379188513,-0.14857969837732535,0.02908226821577986
0.285625,-0.081825624161556,0.01783468940811312,0.18009582256295092,0.9649468397603257,-21.540646465900966,-0.1612263027941309,0.029429582216222383
0.29375,-0.09236022236396962,0.03384948447815616,0.3131464636311381,0.9287060907846808,-20.142952411096033,-0.1747744166371451,0.02976809098018962
0.301875,-0.09812414806362764,0.05218496975262929,0.4393381894032182,0.8743727263820558,-19.08276095492226,-0.18840485425340675,0.03010267118981691
0.31,-0.09874094638559978,0.07148467580379399,0.5563236057742691,0.8032472084264966,-18.27986060549091,-0.20132152991286165,0.03043813444545851
0.318125,-0.09419624517275445,0.09035953620330475,0.6620119191748219,0.716884546937024,-17.685870349766745,-0.21279469482425886,0.03077898684584468
0.32625,-0.08482768540584809,0.10747817875982538,0.7545746039897636,0.6170418630318074,-17.270613838740076,-0.22219942968483958,0.031129211159084957
0.334375,-0.07129483380539473,0.12164938005967385,0.8324409219635315,0.5056367364091572,-17.01550306455224,-0.2290479424814283,0.031492077237760485
0.34249999999999997,-0.054532440725502083,0.1318934455001242,0.8942889250153166,0.38471764596944974,-16.91016048173381,-0.23301464846230413,0.03186998341729996
0.350625,-0.035690287086600526,0.13750036582846611,0.9390373279650792,0.25644574317276303,-16.95075670315792,-0.23395332905748858,0.03226433030148734
0.35875,-0.016062515152846422,0.1380732416835205,0.965842806039581,0.1230854214603196,-17.139428770937148,-0.23190587484595643,0.032675428583492705
0.366875,0.0029909679703507145,0.13355567751336198,0.9741059924899925,-0.01300024638226742,-17.48457532321507,-0.2271022418465532,0.033102444103634054
0.375,0.020128467079792316,0.12424175911231987,0.9634878324827537,-0.1493540797839155,-18.002127482591604,-0.2199513407400232,0.0335433856152787
0.383125,0.034112952872460474,0.11076706333926639,0.9339360774051999,-0.2834346917188033,-18.718258254148267,-0.21102269875252389,0.03399514297677153
0.39125,0.043897317207369384,0.09407917082030323,0.8857196762280831,-0.4126368930563234,-19.674672669736093,-0.20101894887586474,0.03445358479100358
0.399375,0.04870367825358489,0.07538663101313134,0.8194667872926223,-0.5343269300333796,-20.939240813141705,-0.19073956442852624,0.03491372395447334
0.40750000000000003,0.04809086104265439,0.05608647449705776,0.7362003305793139,-0.6458952649903582,-22.62932768997716,-0.18103679600718778,0.0353699563806108
0.415625,0.04200338222656974,0.03767226048945193,0.6373637540186669,-0.7448272214635157,-24.970974200908934,-0.17276546907174686,0.035816371901314814
0.42375,0.03079522917604508,0.021627168746053915,0.5248293737801367,-0.828788827473939,-28.48912036736827,-0.1667290991122629,0.036247127303947746
0.431875,0.015222823228934902,0.009309432930103896,0.40088259749225097,-0.895721989465969,-34.97027092965422,-0.16362556031863973,0.03665686072645302
0.44,-0.003596016748914401,0.0018398872209442268,0.268177700777535,-0.9439402990112185,-47.87372423926834,-0.1639961469488674,0.037041116186841916
0.448125,-0.024256674482151748,2.872168147145319e-06,0.12966444267910415,-0.9722150002231876,-32.303374736486276,-0.16818212993336012,0.037396739380562205
0.45625,-0.04517116275089492,0.004171617907522112,-0.011510853400684019,-0.9798405280707454,-26.86589167649136,-0.1762927054674378,0.03772220346379662
0.464375,-0.064691478866196,0.014267197646018472,-0.152121895215591,-0.9666708647514712,-23.576799025720007,-0.18818750758743663,0.03801782787009356
0.4725,-0.0812409034589265,0.02975639435151206,-0.2889856603158391,-0.933121587219769,-21.257775956311498,-0.20347567146591822,0.03828586419665225
0.480625,-0.09343999466051481,0.04968900590131,-0.41907990387525373,-0.8801372423043066,-19.507808175472764,-0.22153195471948856,0.03853043896726105
0.48875,-0.10021491621627222,0.07277020949872474,-0.5396434106896735,-0.8091286029665822,-18.142161799873605,-0.24152888948509194,0.03875736033784072
0.496875,-0.10087854553921631,0.09745962982433011,-0.6482503136954297,-0.7218883982743353,-17.060883405259133,-0.26248260027033266,0.03897381083508855
0.505,-0.09517883244778379,0.12208644934386999,-0.7428539776267099,-0.6204964937112634,-16.204386727537656,-0.2833089809964119,0.039187957956686836
0.513125,-0.08331317557133718,0.1449695315729897,-0.8218005303687719,-0.5072259068178488,-15.53505545182004,-0.3028864784628999,0.03940851743014351
0.52125,-0.06591125578409851,0.16453286565609146,-0.883816229193599,-0.3844596403999981,-15.028579934652146,-0.32012176142332216,0.03964430039746947
0.529375,-0.043991205696943626,0.1794090825739879,-0.9279758516227476,-0.254625619527366,-14.669547654642122,-0.33401494860697184,0.03990376759663039
0.5375000000000001,-0.018894986857239577,0.18852658968044725,-0.9536609425316394,-0.12015368394643187,-14.449140735379839,-0.3437216498839404,0.04019460337889136
0.545625,0.00779145313965467,0.19117833236198603,-0.9605170978224954,0.01654480097095576,-14.364019140295174,-0.34860965343380224,0.040523312844745085
0.5537500000000001,0.03432884972911483,0.18707183120960913,-0.9484187838957799,0.15307720780231968,-14.415993843596196,-0.3483085054426245,0.04089483884925493
0.561875,0.05892324181264925,0.1763607254252966,-0.9174487835927935,0.2870548410667004,-14.612371342065394,-0.3427503666687943,0.041312193806026354
0.5700000000000001,0.07983097398966946,0.15965758787079212,-0.8678974368988702,0.4160701913330548,-14.967061156672521,-0.33220034780567337,0.04177610513558783
0.5781250000000001,0.09546910049199427,0.13802648731293304,-0.8002844674609452,0.5376750203750141,-15.502800622012675,-0.3172740533037361,0.0422846832567817
0.58625,0.10452968080019713,0.11295207514918137,-0.7154032672127771,0.6493692347252035,-16.255334788629867,-0.298939413701287,0.04283313680498968
0.5943750000000001,0.10609455952322615,0.08628047359181831,-0.6143839060250087,0.7486110209505775,-17.2814966855977,-0.27849926201894193,0.04341357964513137
0.6025,0.09974396695068483,0.06012672587828005,-0.49876680034911147,0.8328580923457359,-18.676095899570257,-0.25755080480287573,0.04401499477583026
0.6106250000000001,0.08564807987630657,0.036744926102189476,-0.3705741960415091,0.8996474567977267,-20.61191015933676,-0.2379185194405016,0.044623435524817845
0.61875,0.06462652997228774,0.018361158143659243,-0.23236221497623996,0.9467161846311744,-23.454653364971936,-0.22155845264884358,0.045222546304092504
0.6268750000000001,0.03815833410943509,0.006976327247870183,-0.08723362685096647,0.9721579614815469,-28.225421119242018,-0.21043466575636116,0.045794464670593005
0.635,0.008325807077051123,0.00415516360658153,0.06120740545771241,0.9746004062127509,-40.625601070452575,-0.20637265186764037,0.04632111727899435
0.6431250000000001,-0.022317639160753147,0.010827060524374049,0.2089709699609624,0.9533781964117147,-32.10911491649127,-0.2108994634897095,0.046785846063012726
0.6512500000000001,-0.05095395386568901,0.02713070922289543,0.3518677231722564,0.9086701894664453,-24.772453767740586,-0.225085035424119,0.047175211367102676
0.659375,-0.07476362519734815,0.052334169445310046,0.48575019264582064,0.8415685020004751,-20.794350379337125,-0.2494023868077902,0.04748074184104467
0.6675000000000001,-0.09121285833989434,0.08485292236420354,0.6067776731096863,0.7540561540616304,-18.091137688707878,-0.28362469617389985,0.04770036797709831
0.675625,-0.09832274308484515,0.12237146071511973,0.7116632826948934,0.6488866817958475,-16.083216462660612,-0.3267739415515465,0.04783931004662223
0.6837500000000001,-0.09487921159985717,0.1620534445407043,0.7978616926527472,0.5293798667148354,-14.52676017515448,-0.3771292574951651,0.047910292432958745
0.691875,-0.08055426419699467,0.20080785998493575,0.8636669440417518,0.3991660373824993,-13.296355106119078,-0.43229492038303563,0.04793309825788583
0.7000000000000001,-0.0559280279575325,0.23556975563963756,0.9082083897897548,0.2619214588566734,-12.319463766437284,-0.48932016915154813,0.04793361602255575
0.7081250000000001,-0.022421462787453144,0.2635564836665306,0.9313530872782333,0.12113655324898208,-11.551207625477094,-0.5448580269573673,0.04794262020806472
0.71625,0.017835275926981923,0.28247223117856773,0.9335388267411836,-0.020051292930538308,-10.963205411474595,-0.5953491856389667,0.04799454616411847
0.7243750000000001,0.06216734555461802,0.2906503300612717,0.9155698862588431,-0.15894314339554727,-10.538308397696415,-0.6372199689179383,0.048126467325478095
0.7325,0.10752366585004014,0.28713916811390144,0.8784075965101279,-0.29327883515964476,-10.268248359062786,-0.6670895799571592,0.04837737865772773
0.7406250000000001,0.15062972240530983,0.27174976673748136,0.822982764800358,-0.4211583606864932,-10.153050813599389,-0.6819900141875084,0.04878775507164801
0.74875,0.1881183828609672,0.24508971061604728,0.7500510879402887,-0.5408943311375826,-10.201899792436667,-0.6796109651711756,0.04939919580273344
0.7568750000000001,0.21664752384599167,0.20860910356431642,0.6601098436401875,-0.650805126268905,-10.435726665426465,-0.6585907072123663,0.05025377427293465
0.7650000000000001,0.2330298174197208,0.1646795485316119,0.5533973915699427,-0.7489570200188524,-10.892569032238185,-0.618880972317729,0.05139245965681971
0.7731250000000001,0.23441845523464433,0.11671485960061624,0.4300078623431608,-0.8328668762979546,-11.638381697754006,-0.5622165545263196,0.052851634082564214
0.7812500000000001,0.21861204320948455,0.06931663710954063,0.2901705387138795,-0.8991933701470637,-12.79047104808001,-0.49271280224363045,0.05465631992966136
0.789375,0.18455516823199797,0.028378962395925418,0.13475861109058282,-0.9434859322209838,-14.575981777601895,-0.4175845154932176,0.05680843681022796
0.7975000000000001,0.13309574902767426,0.0010042739112879218,-0.03391826145957925,-0.9601381632465986,-17.51646904985316,-0.34790892512808363,0.059268772041680906
0.805625,0.06796903485931856,-0.005025052934531567,-0.21106735305279484,-0.942800103275933,-23.330104616999975,-0.2992221755551326,0.06193349688147487
0.8137500000000001,-0.003251358164324896,0.01745967077603739,-0.3883656836871296,-0.8855762062650895,-35.01122567745255,-0.291544265978218,0.0646114671978395
0.821875,-0.0688644732385072,0.07278363465628501,-0.553537688750946,-0.7851999836071389,-19.98276100099311,-0.3482512578017594,0.06701723972741302
0.8300000000000001,-0.11432381726558272,0.15967585029402576,-0.6914827826934719,-0.6438043088334512,-14.137918855753854,-0.4932734050771734,0.06880126080468052
0.8381250000000001,-0.1256370177169368,0.26934556322708664,-0.7875519848698208,-0.4709566352673887,-10.53883447340609,-0.7466816393378793,0.06963002617430303
0.8462500000000001,-0.09403671315871978,0.38619949301500756,-0.8321994892279306,-0.28311664220463184,-8.013622867862592,-1.1198289236414567,0.06929602520880163
0.8543750000000001,-0.019472742216638562,0.49185114036513633,-0.8245906041289371,-0.09977013843629656,-6.156524434682311,-1.6121149760603979,0.06779952309075588
0.8625,0.08940807088458405,0.5706423992172313,-0.7727694544101594,0.062077214717622765,-4.767393943028562,-2.211065883607363,0.06534723881982585
0.8706250000000001,0.21875912824406898,0.6135985089806425,-0.6903026388172112,0.19197524620110776,-3.722669036021275,-2.8956762888055882,0.06226908527464636
0.87875,0.3541471969975863,0.6190983540722659,-0.5916870818183132,0.28687010018442033,-2.935356933572769,-3.641263100392258,0.0589089336732736
0.8868750000000001,0.48386962888181595,0.5909558775340714,-0.4889539488794222,0.34931227505176876,-2.3406434544580397,-4.423784894756569,0.05554630342708622
0.895,0.6001741132421939,0.5357146506796705,-0.39033699710333314,0.3847988566585647,-1.889620596570008,-5.2225217556964125,0.05236771544771862
0.9031250000000001,0.6989390161976974,0.4604764769569922,-0.30049915701904384,0.3995892191318475,-1.5455817568786356,-6.021098730604257,0.04947437839031579
0.9112500000000001,0.7787101010356897,0.3716599504169472,-0.22143870252656336,0.3994237881263627,-1.28123316216701,-6.80738869013752,0.046904998303196915
0.919375,0.8397090735153131,0.27451860829841424,-0.15345424466692484,0.3889997600244711,-1.0764278733286778,-7.57287127536739,0.04465918704856367
0.9275000000000001,0.8830690111593822,0.1731058767102334,-0.09590181209438861,0.37190165985234735,-0.9163481841714498,-8.31184418998593,0.042715474814453896
0.935625,0.9103302138140638,0.0704384831313993,-0.04770076676186603,0.35074035950001264,-0.7900964082392659,-9.020691609733548,0.04104315897952046
0.9437500000000001,0.9231429796843805,-0.03128657047355929,-0.007636139556748935,0.327353955171312,-0.6896350246761572,-9.697285611658467,0.03960926697381496
0.951875,0.9231098946604914,-0.13048884321963972,0.02547812541204243,0.3030006894173369,-0.6090066058178398,-10.340529092526094,0.03838223151320373
0.9600000000000001,0.9117131691806919,-0.2260382846384221,0.05272170978174917,0.2785186638314172,-0.5437672674422646,-10.950020940299012,0.037333566235469934
0.9681250000000001,0.8902899421209541,-0.3171283997372214,0.07503944752840237,0.2544485435778901,-0.4905779959911661,-11.525817154754508,0.03643841702409992
0.9762500000000001,0.8600325988437998,-0.403183164664747,0.09323880891001216,0.2311239046211775,-0.44691046834631143,-12.068263407853113,0.035675529882602225
0.9843750000000001,0.8220007917870576,-0.48379028433753196,0.1079998409330384,0.20873606546030488,-0.4108350156469934,-12.577879166033537,0.03502694841665002
0.9925,0.7771378592268346,-0.55865400365799,0.11989006561881839,0.18737985978515104,-0.38086724394042215,-13.055278323522465,0.03447761226604338
1.000625,0.7262878710085013,-0.6275620248888745,0.12938040206250184,0.1670856076567823,-0.3558565147204148,-13.501115378054378,0.03401494461942325
1.00875,0.6702115191349216,-0.6903624345198236,0.13686020536475252,0.14784127506516834,-0.33490436496685505,-13.916049331707981,0.03362847019734582
1.016875,0.6096001458332726,-0.7469476667462448,0.14265062351749663,0.12960773529393596,-0.3173044301461161,-14.300719818046606,0.03330947990443984
1.0250000000000001,0.5450877545840918,-0.7972433899088188,0.14701605192725348,0.11232921288731239,-0.3024978957661976,-14.655731616820207,0.033050745457008056
1.033125,0.477261113693429,-0.8412008307024982,0.15017374798389221,0.09594037738187612,-0.29004023476359614,-14.981644887423455,0.03284628118582857
1.04125,0.4066681713846605,-0.8787914993604832,0.15230179036103325,0.08037111389924381,-0.27957620490618695,-15.278969269581415,0.032691147737829135
1.049375,0.33382503129752755,-0.910003594518136,0.15354560620920826,0.06554968705601895,-0.27082093714619787,-15.548160567946978,0.03258129178398127
1.0575,0.2592217289466292,-0.9348395868544965,0.1540232864972377,0.051404797362179275,-0.26354555131515034,-15.789619131482723,0.03251341611637765
1.065625,0.18332702513128352,-0.9533146341431451,0.15382988838222242,0.03786687807430539,-0.2575661656346169,-16.003689311902132,0.032484875170254085
1.07375,0.10659240284736088,-0.9654555873671282,0.15304089562221065,0.024868875562600482,-0.25273547394755536,-16.190659575124805,0.032493591772222746
1.0818750000000001,0.029455425445786568,-0.9713004224238637,0.15171497963633956,0.01234668362632703,-0.24893628596166117,-16.350762971494856,0.03253799166840818
1.09,-0.04765741197950087,-0.9708979846906547,0.14989617755907333,0.0002393520676475678,-0.24607658660843273,-16.48417776221994,0.03261695307080785
