freq_thz,s11_real,s11_imag,s21_real,s21_imag,s11_db,s21_db
0.05,-5.013752454382715e-17,-1.3799249879432064e-16,0.7383326297993875,-0.6659772966180204,-300.0,-0.04952671117403616
0.058125,2.812731756125985e-16,8.313632651580836e-16,0.6535589603775654,-0.7487591824387915,-300.0,-0.0533993499644987
0.06625,3.55015688658237e-16,1.752778530403143e-16,0.5595969370965093,-0.8208593801158549,-300.0,-0.05700952581402391
0.074375,5.956431041939092e-16,3.715302645818311e-16,0.45777759443825783,-0.8812646276184408,-300.0,-0.06040431681924806
0.0825,-1.0789923114402868e-15,-4.942395013237063e-16,0.3495441120629457,-0.9291270355803621,-298.51244045075293,-0.06361821238743995
0.09062500000000001,1.394726879590323e-15,7.108305116419941e-16,0.23643087362283216,-0.9637762530132653,-296.10737657410016,-0.06667737550527636
0.09875,2.663302115375633e-15,1.2192111463969839e-15,0.1200414218628204,-0.9847290473008334,-290.6653022716244,-0.06960221161183104
0.106875,-1.0319475979487492e-15,-5.425051062593092e-16,0.0020255394646307274,-0.9916961885688159,-298.66707804161285,-0.07240900025684194
0.115,5.855813112669435e-16,3.258632046607117e-16,-0.11594426142128549,-0.984586555771248,-300.0,-0.07511097639599519
0.123125,-9.23948858019947e-17,-1.1921296961619518e-16,-0.23219653026228793,-0.9635084154839926,-300.0,-0.07771907251172719
0.13125,8.234997846161484e-16,6.914929866356997e-16,-0.34508462541103085,-0.9287678612878036,-299.3692404868488,-0.08024244318962419
0.13937500000000003,-4.1071804330782113e-16,-9.792848631017507e-17,-0.45301008853975955,-0.8808644400185262,-300.0,-0.08268884535430578
0.14750000000000002,1.5281454332065356e-16,6.265222589667349e-16,-0.5544453196264204,-0.8204840299078309,-300.0,-0.08506491993144459
0.155625,1.4321581209652833e-15,6.500668815751714e-16,-0.6479552341374027,-0.7484890738779504,-296.0665932045977,-0.08737640448054296
0.16375,-9.39432290284734e-16,7.063452719705217e-16,-0.7322175975095885,-0.665906308274258,-298.59662731974925,-0.08962829640698425
0.171875,6.084121989130826e-16,-1.0438969919288669e-15,-0.8060417502066943,-0.5739121624953555,-298.3568095698006,-0.09182498011833641
0.18,-4.582691518068887e-16,6.105922572267719e-16,-0.8683854590993743,-0.47381603776420417,-300.0,-0.0939703273945624
0.188125,1.0857082781833136e-16,3.2006896123500014e-16,-0.918369657277139,-0.3670417031660303,-300.0,-0.0960677775718887
0.19624999999999998,-9.506253168534442e-16,5.814383395464065e-16,-0.955290864222582,-0.2551070736244419,-299.05962671150314,-0.09812040228497473
0.20437500000000003,9.245601462024646e-16,-1.0412433580695082e-15,-0.9786311111019398,-0.13960265729932372,-297.12422371298055,-0.10013095825704138
0.21250000000000002,-1.2061346523339784e-15,-5.093613309771587e-17,-0.9880652312687401,-0.022168978641146465,-298.3643455850049,-0.10210193072841645
0.22062500000000002,1.0129011526296768e-15,2.1568879369799926e-16,-0.9834654134228522,0.09552670224726754,-299.6960658625805,-0.1040355694720274
0.22875,-3.230332990810093e-16,-1.2157942261667758e-15,-0.9649029536751969,0.21181404341529111,-298.00654603771994,-0.10593391889433786
0.236875,-1.1485003589000865e-15,3.648463440087856e-17,-0.9326471824885002,0.32504331231748457,-298.79299680204036,-0.10779884335796143
0.245,-1.0353888693168895e-15,-9.949309217997584e-16,-0.8871615825207365,0.43360877836396705,-296.85728683827557,-0.10963204862765508
0.253125,-1.3781555305447758e-15,-4.15770748660467e-16,-0.8290971532274951,0.5359714749484321,-296.83572945259067,-0.11143510014012928
0.26125,9.772128727036439e-16,4.904519245915073e-16,-0.7592831171110482,0.6306810081690664,-299.22454746562033,-0.11320943865372253
0.26937500000000003,6.166425732833516e-17,-9.225920910738654e-16,-0.6787151001840956,0.7163961030678079,-300.0,-0.11495639371969701
0.2775,1.0743486179368195e-15,6.619730827669206e-16,-0.5885409550081151,0.7919035962035166,-297.9793874515259,-0.11667719534624427
0.285625,1.4152164794173548e-15,-1.6792736983561268e-16,-0.4900444280677085,0.8561356054940917,-296.9228210387822,-0.11837298412539024
0.29375,1.1830119477685612e-16,-3.363673118861418e-16,-0.38462690376879094,0.9081846341883236,-300.0,-0.1200448200784183
0.301875,4.410407538017402e-16,3.838729353983086e-16,-0.2737874845794204,0.9473163952014731,-300.0,-0.1216936904063077
0.31,-1.3187321887097245e-15,-2.0177518873585568e-16,-0.15910169037230693,0.9729801744453456,-297.49636651849437,-0.12332051630483076
0.318125,-2.0088068866282589e-16,1.1462185304612701e-16,-0.042199079548242785,0.9848165867452309,-300.0,-0.12492615898483758
0.32625,-5.457038507199713e-16,-9.537753166601714e-17,0.07525989025642435,0.9826626149694135,-300.0,-0.12651142499999113
0.334375,-1.0740138913958189e-16,1.7463937524810968e-16,0.19160743336452676,0.9665538615695027,-300.0,-0.12807707098663584
0.34249999999999997,2.444973791862786e-16,-8.273973834816301e-16,0.3051921045931188,0.9367239813030593,-300.0,-0.129623807880529
0.350625,-4.1729920030842697e-17,-1.0784389686582293e-17,0.41440222926739584,0.8936013039109205,-300.0,-0.13115230469390346
0.35875,-1.0354562766879031e-15,6.143951178559933e-17,0.5176887623182803,0.8378026953959695,-299.6821012425519,-0.13266319189390288
0.366875,2.484579521019031e-16,1.5148490978679466e-16,0.6135872522494885,0.7701247457181686,-300.0,-0.13415706444502334
0.375,2.1087526924456507e-15,1.195021007680428e-16,0.7007385985409398,0.6915324086398748,-293.50556223959893,-0.13563448454382648
0.383125,6.184037556144332e-16,-6.192357015843569e-16,0.777908308250467,0.6031452555766542,-300.0,-0.137095984091772
0.39125,-6.25496901582358e-16,-5.503560956424102e-16,0.8440039789436434,0.5062215391286625,-300.0,-0.13854206693629545
0.399375,-3.6185663905492934e-16,6.744650032500923e-16,0.8980907603174154,0.402140293002651,-300.0,-0.13997321089408393
0.40750000000000003,7.769613880693884e-17,-4.3340988175211445e-16,0.9394045756234494,0.2923817228424592,-300.0,-0.14138986959810212
0.415625,-3.514839910622845e-16,-5.025751935993373e-16,0.9673629158418795,0.1785061666804632,-300.0,-0.14279247417799856
0.42375,-1.085554782019321e-15,-1.3549426988971735e-16,0.9815730540450673,0.06213192395280332,-299.2198281690117,-0.14418143479257653
0.431875,-1.4424001962586003e-15,-3.7184484909780563e-16,0.9818375640377995,-0.05508773199392172,-296.53884403398627,-0.14555714202970058
0.44,-1.2687497090554791e-15,3.4624999401848045e-17,0.9681570656434959,-0.1714880314647671,-297.92924755487513,-0.14691996818957306
0.448125,-8.96118331669925e-16,9.93641794643168e-16,0.9407301583828674,-0.28541634273074873,-297.47061554748456,-0.14827026846233526
0.45625,1.339479785212464e-15,2.0039052730233324e-16,0.8999505452021895,-0.39525562763384603,-297.36514846342635,-0.14960838200716167
0.464375,4.26235021600834e-16,5.076326503851705e-16,0.8464013877851154,-0.49944738563711955,-300.0,-0.1509346329495996
0.4725,6.385193557769647e-16,4.764191706889843e-16,0.7808469742632025,-0.5965137608137852,-300.0,-0.15224933129785956
0.480625,1.5762686602437745e-15,-3.350358223085172e-16,0.7042218182629397,-0.6850784982263569,-295.8554947439395,-0.15355277378716728
0.48875,-1.1153732393937515e-15,3.6043125962861503e-16,0.6176173446544112,-0.7638864525507649,-298.62023332634516,-0.15484524466141766
0.496875,-7.863333655161829e-17,-7.575285935888508e-16,0.5222663515807892,-0.8318213724178292,-300.0,-0.15612701640376042
0.505,-2.4035960074290454e-17,-4.635527997027792e-16,0.4195254698657258,-0.8879217084847653,-300.0,-0.1573983503987686
0.513125,2.648464010085313e-16,4.3316535894963116e-16,0.31085586926284925,-0.9313942213539439,-300.0,-0.15865949755713846
0.52125,1.5449847290232329e-15,-8.92362209331302e-16,0.19780248583875248,-0.961625196738521,-294.97124050767417,-0.15991069889845816
0.529375,7.952999908425267e-16,1.196426832921646e-17,0.08197206570567342,-0.9781891092819897,-300.0,-0.1611521860827181
0.5375000000000001,-1.0269468837024153e-15,-8.492780190393198e-16,-0.03498966295029161,-0.9808546126847848,-297.5058319102054,-0.16238418191442613
0.545625,-5.041876101660489e-16,3.1306588436550377e-16,-0.15142136529848008,-0.9695877717725203,-300.0,-0.16360690081127288
0.5537500000000001,-2.571699107596483e-15,-3.2342270987719116e-16,-0.2656696908096623,-0.9445524913070501,-291.7274457941736,-0.1648205492352434
0.561875,1.7087170132924998e-15,-7.977125887347124e-16,-0.37611274479604895,-0.9061081361395336,-294.490310169615,-0.16602532610108647
0.5700000000000001,-2.6276044616595306e-16,-7.893965516527111e-16,-0.4811831073950569,-0.8548043771743955,-300.0,-0.1672214231608305
0.5781250000000001,-2.4769439321417627e-16,1.1386776024203162e-16,-0.5793900733484357,-0.7913733369836566,-300.0,-0.16840902535494812
0.58625,1.5031618864094858e-15,-4.3548317512249856e-16,-0.6693407970635331,-0.7167191472212256,-296.10986166511805,-0.16958831114708872
0.5943750000000001,1.9283376911910065e-15,-7.559740979875956e-18,-0.7497600430555155,-0.6319050667017014,-294.2962714528211,-0.17075945284115562
0.6025,-4.484364310918396e-17,2.6659110001670064e-16,-0.8195082617360823,-0.5381383436003827,-300.0,-0.1719226168703629
0.6106250000000001,-4.686785322055418e-16,8.68099652976357e-17,-0.8775977343481939,-0.43675303720875674,-300.0,-0.17307796407530748
0.61875,-1.7241828923605343e-15,-2.4520068760372583e-17,-0.9232065583152055,-0.32919104359709195,-295.2674551194605,-0.1742256499640229
0.6268750000000001,-1.052697109488834e-15,2.1382054151660845e-16,-0.9556902749805728,-0.2169815949750248,-299.3783542917311,-0.17536582495576514
0.635,-1.4482117437935581e-15,-2.7228185718496004e-16,-0.9745909752265537,-0.10171952414610345,-296.63249233358465,-0.17649863461058585
0.6431250000000001,-1.1946501550119327e-15,1.3191476316782895e-16,-0.9796437543004854,0.01495739708353644,-298.40255246216964,-0.17762421984738194
0.6512500000000001,-9.465981497753635e-17,-2.939381608552386e-16,-0.9707804248368779,0.13139172360628032,-300.0,-0.17874271714789294
0.659375,-1.669342071828052e-15,2.7764751225042417e-16,-0.9481304360057599,0.24592987638464037,-295.4305866586983,-0.17985425874937305
0.6675000000000001,6.532879142570555e-16,1.0725114938063271e-15,-0.9120189863912546,0.35694562124351104,-298.0215013022709,-0.18095897282870446
0.675625,-2.769578237612481e-16,8.637161921129532e-16,-0.8629623580461238,0.4628631537681495,-300.0,-0.18205698367329176
0.6837500000000001,-3.623477635844226e-16,2.406185475517516e-16,-0.8016605386095832,0.5621794626593832,-300.0,-0.1831484118447757
0.691875,1.7054528872770498e-16,-1.4381120021715614e-15,-0.7289872368614945,0.6534856542139824,-296.78349418745483,-0.1842333743323753
0.7000000000000001,-1.090398093061379e-15,-5.237599037968727e-16,-0.6459774340657339,0.7354869354165597,-298.3466887169086,-0.1853119847034027
0.7081250000000001,-5.588572245466562e-16,9.34401736836969e-16,-0.5538126484093934,0.8070209722410764,-299.2612481768629,-0.18638435323727331
0.71625,1.796070773760844e-15,-1.3302575890211187e-16,-0.45380412226919387,0.8670743628874802,-294.88977250335535,-0.1874505870588538
0.7243750000000001,2.050990647071923e-17,3.68400815724152e-17,-0.34737417148198796,0.9147969924997614,-300.0,-0.18851079026346754
0.7325,-1.813349310351128e-16,-1.5700883547801465e-16,-0.2360359618367486,0.9495140660392258,-300.0,-0.18956506403463774
0.7406250000000001,-6.643278618237113e-16,1.2901352273053645e-16,-0.12137200027627523,0.9707356489940983,-300.0,-0.1906135067607581
0.74875,-4.880447368981703e-16,-4.598117909351489e-16,-0.005011646482469877,0.9781635810279282,-300.0,-0.19165621413478479
0.7568750000000001,1.846359707863923e-15,5.534225381904534e-16,0.11139203564092601,0.971695664991218,-294.30003695478734,-0.19269327926462998
0.7650000000000001,1.868539471952001e-15,5.322818376154337e-16,0.22618575777005298,0.9514270724312939,-294.2311022851063,-0.19372479276135146
0.7731250000000001,-1.98947828808697e-15,4.141046445744172e-16,0.33773948479779387,0.9176489462595191,-293.8410184433195,-0.19475084284147223
0.7812500000000001,-1.0541873702008303e-15,2.0103476863714592e-17,0.44446957695875183,0.8708442210410695,-299.5400647150708,-0.1957715154061982
0.789375,-1.1763377034736294e-15,5.935645870145034e-16,0.5448612679299346,0.8116807208638341,-297.6042793669128,-0.19678689413080155
0.7975000000000001,-7.026913360131344e-16,-9.701910617590134e-16,0.6374901598937305,0.7410016333891022,-298.43134235011155,-0.19779706053922863
0.805625,1.9837769286498048e-16,2.6541657748579913e-16,0.7210424305729132,0.6598134959132934,-300.0,-0.19880209409103905
0.8137500000000001,5.368286571371249e-17,7.632456755051351e-16,0.7943334656037544,0.569271864571945,-300.0,-0.19980207224102017
0.821875,-3.602329231507712e-16,-4.707250813956858e-16,0.8563246520255611,0.4706648706682599,-300.0,-0.20079707051870305
0.8300000000000001,5.464708758916714e-16,5.301222736352896e-16,0.9061380948356491,0.36539489807201403,-300.0,-0.20178716258962426
0.8381250000000001,2.0221629964133225e-16,8.31966062718253e-17,0.9430690480933616,0.25495864225805476,-300.0,-0.20277242032139242
0.8462500000000001,1.9347350772710808e-16,9.280838208238126e-16,0.9665958845530802,0.1409258344796203,-300.0,-0.20375291384400887
0.8543750000000001,-5.905905975528966e-16,-2.3519221693376425e-16,0.9763874627909105,0.02491693346471082,-300.0,-0.2047287116086001
0.8625,-2.864960164658505e-16,4.276632945504987e-16,0.972307787771898,-0.09141989837947452,-300.0,-0.20569988044151954
0.8706250000000001,-1.5852541373725277e-15,-1.4975873012817247e-16,0.9544178992546682,-0.20643220717572297,-295.9594351796588,-0.2066664856012315
0.87875,4.465162814838085e-16,6.293654875799232e-16,0.9229749618077014,-0.3184867156740941,-300.0,-0.20762859082422336
0.8868750000000001,1.8582212686068683e-15,-1.8390800288314565e-17,0.8784285699471243,-0.4259925139867592,-294.6176260961696,-0.20858625837930167
0.895,7.372006647110438e-16,-8.577188740084271e-16,0.8214143214497608,-0.5274236437169357,-298.9307971760028,-0.20953954911111772
0.9031250000000001,-8.885913136498765e-16,-3.104877319257807e-16,0.7527447506699635,-0.6213407549189182,-300.0,-0.2104885224859261
0.9112500000000001,-2.0834491340295393e-16,1.0078324216790352e-16,0.6733977511573666,-0.7064115285565732,-300.0,-0.21143323663766408
0.919375,-5.315554300837571e-16,-5.3289431874265e-16,0.5845026524966429,-0.7814295747200855,-300.0,-0.21237374840613998
0.9275000000000001,-1.7809914863862624e-15,4.425091477086049e-16,0.48732414956339476,-0.8453315385615165,-294.72660797347936,-0.21331011337747136
0.935625,-3.3853324447422232e-15,8.507667283014487e-16,0.38324431284597377,-0.8972121714138336,-289.1420013686072,-0.21424238592294628
0.9437500000000001,3.0254659309375487e-16,-5.885855860050155e-16,0.27374293568401026,-0.9363371535000504,-300.0,-0.2151706192376927
0.951875,9.458845557353908e-17,-4.233870573616007e-16,0.16037649783833377,-0.9621534866091318,-300.0,-0.21609486537208497
0.9600000000000001,1.1334638552660525e-16,7.402738287866354e-16,0.04475604439735533,-0.9742973096550913,-300.0,-0.21701517526903244
0.9681250000000001,1.0587767036519795e-15,-4.577805780262173e-16,-0.07147570563153345,-0.9725990266615255,-298.75961892180726,-0.21793159879645946
0.9762500000000001,2.159163614915591e-15,-3.10818227104143e-16,-0.18666769582259352,-0.9570856748973409,-293.2252121168477,-0.21884418477755435
0.9843750000000001,-7.615891301635018e-16,5.867453860032279e-16,-0.2991839824451775,-0.927980500092778,-300.0,-0.2197529810216635
0.9925,-9.802513618892348e-16,4.509212513350817e-16,-0.4074269651633578,-0.8856997453309149,-299.3396393434287,-0.2206580343541477
1.000625,-4.503460587071898e-16,-1.6806720731444182e-16,-0.5098600684765523,-0.830846699774175,-300.0,-0.22155939064163177
1.00875,-1.0362564204715912e-15,2.683202946922329e-16,-0.6050295519196239,-0.7642030922847711,-299.4088240777684,-0.22245709482609535
1.016875,1.785424882310878e-15,-1.8563019254439668e-16,-0.6915851394775077,-0.6867179526877069,-294.91847428678795,-0.22335119094282369
1.0250000000000001,-7.239740513427694e-16,-3.91223398252842e-16,-0.768299175494628,-0.5994940993554168,-300.0,-0.2242417221492758
1.033125,2.3503254272473023e-16,-7.526460205467181e-17,-0.8340840353423177,-0.5037724454729275,-300.0,-0.22512873075090778
1.04125,1.3132120427732446e-15,6.401722700892597e-16,-0.8880075439428127,-0.40091434727882325,-296.707350931448,-0.22601225822131144
1.049375,1.1237523825466463e-15,3.925364144085428e-16,-0.929306183583848,-0.2923822453374891,-298.4865949583642,-0.22689234522822893
1.0575,-6.860488830780322e-16,-7.417273380601109e-16,-0.9573959038948024,-0.17971887409093784,-299.91049760255527,-0.2277690316531403
1.065625,7.817313047844335e-16,4.682595449700861e-16,-0.971880380939842,-0.06452533521485622,-300.0,-0.22864235661285043
1.07375,-9.08254433089732e-16,2.2854702152335897e-16,-0.9725566086375448,0.0515616536178015,-300.0,-0.22951235847883766
1.0818750000000001,6.940960643289094e-16,-1.1045155457666097e-16,-0.9594177436202225,0.16689301131265855,-300.0,-0.23037907489904655
1.09,6.318298886538531e-16,-1.5121547937837346e-16,-0.9326531636649465,0.2798307169585744,-300.0,-0.23124254281648626
1.098125,7.6248021845059e-16,-4.149802845571728e-16,-0.8926457394039353,0.3887710717846474,-300.0,-0.2321027984864194
1.1062500000000002,1.2105973861272833e-16,-5.416802810675612e-16,-0.8399663585952389,0.49216746915170206,-300.0,-0.23295987749342553
1.1143750000000001,-1.0940485965924144e-16,-5.475672103740332e-17,-0.7753657812425225,0.5885523493085548,-300.0,-0.23381381477332988
1.1225,-3.4470684347675555e-16,-5.897310413001301e-16,-0.6997639417440134,0.6765580272828862,-300.0,-0.23466464462171518
1.130625,-1.561157649118078e-15,8.19287882075595e-16,-0.6142368504785406,0.7549360983344335,-295.07456695282497,-0.23551240071923024
1.1387500000000002,5.446164603943094e-16,-6.782741040021973e-16,-0.5200012813038938,0.8225751456575449,-300.0,-0.23635711613951038
1.146875,-5.185475392860069e-16,-1.0546496702997129e-15,-0.41839746284439155,0.8785164991770654,-298.5975051217164,-0.23719882336675324
1.155,-1.3750214400917048e-15,-1.2046069588183264e-15,-0.3108700197554878,0.9219678220068838,-294.76024498579113,-0.238037554313619
1.1631250000000002,-3.813383798892588e-16,-5.762061508454005e-16,-0.198947434958833,0.9523143320318719,-300.0,-0.23887334033023183
1.1712500000000001,2.569693924768854e-17,-6.075581445672399e-16,-0.08422032479351972,0.9691274996905747,-300.0,-0.23970621222122712
1.179375,-1.3287795277718006e-16,7.404024396911726e-16,0.03168116416527164,0.9721710989089295,-300.0,-0.24053620025790115
1.1875,6.492699237843289e-17,1.0824300082787212e-15,0.14711051545341916,0.9614045257443763,-299.2964060206439,-0.2413633341905065
1.1956250000000002,-4.071729689202866e-16,6.454669997157629e-16,0.26042823121035563,0.9369833381174776,-300.0,-0.24218764326178618
1.20375,-1.9837011230037923e-16,3.734789717491524e-16,0.3700251166167531,0.8992570094812006,-300.0,-0.24300915621730754
1.211875,1.3296532956319614e-15,-2.484448978556576e-16,0.4743451296155105,0.8487639288436266,-297.37619458272684,-0.24382790131948945
1.22,-5.077416211436094e-16,3.0259917584180395e-16,0.5719074714879803,0.786223718660715,-300.0,-0.2446439063595748
1.2281250000000001,-1.4152252120016353e-16,4.994849618394369e-16,0.6613276046975816,0.7125269801921541,-300.0,-0.2454571986639158
1.23625,-6.455908641733219e-16,4.275279407898505e-16,0.7413368997027378,0.6287226124254423,-300.0,-0.24626780510820898
1.244375,3.948215840233871e-16,-2.0588839086827546e-16,0.8108006319667661,0.5360028851082467,-300.0,-0.24707575212834765
1.2525000000000002,4.2818154438095206e-16,-2.5205852467186647e-16,0.8687340738717405,0.4356864782901288,-300.0,-0.247881065728832
1.260625,-1.3280452850605893e-15,-1.332605468258854e-16,0.9143164533439491,0.3291997296150074,-297.49223277987664,-0.24868377149305693
1.26875,-1.379657205347362e-15,4.628247642777575e-16,0.9469025813359355,0.21805635601580178,-296.7414360936162,-0.24948389459225
