freq_thz,s11_real,s11_imag,s21_real,s21_imag,s11_db,s21_db
0.05,-0.11108169020629027,-0.09029760996289586,0.651038904465792,-0.7372427558602185,-16.88398692835935,-0.14403552790938146
0.058125,-0.13760975770040135,-0.08269831806319351,0.543449709496645,-0.8159999482190948,-15.887936221272525,-0.17189173727937024
0.06625,-0.16173318454683067,-0.06840839491519582,0.4271467999127226,-0.8791138663708126,-15.109232108509993,-0.19862232242170397
0.074375,-0.18186552124494862,-0.04829689559258858,0.3043707430764651,-0.925904147817061,-14.509027989320288,-0.22303806330381665
0.0825,-0.1967110514008108,-0.023579653979042322,0.17730529238460646,-0.9559877423999301,-14.061466428146936,-0.244074953504918
0.09062500000000001,-0.2053282616890167,0.004269837389446632,0.04805250728587193,-0.9692242910988024,-13.749147737163154,-0.26085229791186787
0.09875,-0.20716919513234533,0.03361539912190357,-0.0813708351153965,-0.9656679016783504,-13.560632517025295,-0.27271645783159265
0.106875,-0.20209717913950562,0.06275406746540543,-0.2090210166879796,-0.9455314353395572,-13.48902887940725,-0.2792706165717496
0.115,-0.1903855105421936,0.0900099677411514,-0.33300593505230836,-0.9091670054517368,-13.531216824885925,-0.28039102050386466
0.123125,-0.17269895347090572,0.11382451515934305,-0.45146142024949665,-0.857064051952568,-13.687495880236558,-0.27623014301937
0.13125,-0.1500588151669897,0.1328417556084577,-0.5625321370888338,-0.7898641789189266,-13.961567696241824,-0.2672071195926037
0.13937500000000003,-0.12379137153017787,0.14598723971539365,-0.664363302989897,-0.7083899145902134,-14.360850999908559,-0.25398570269210674
0.14750000000000002,-0.0954589384245752,0.15253768871441825,-0.7551084021256774,-0.6136826511328117,-14.897210712493083,-0.23744000538142163
0.155625,-0.0667732617957384,0.1521771810601327,-0.8329564814765681,-0.5070433009655481,-15.588303733695524,-0.21860855309963403
0.16375,-0.03949232302945111,0.1450341301519132,-0.8961803726484041,-0.39006785553887874,-16.459964481943764,-0.1986377179763399
0.171875,-0.015304101440986756,0.13169250536593025,-0.9432042924567176,-0.2646693766692506,-17.550519984036946,-0.1787164789666908
0.18,0.004296013861803411,0.11317114750910287,-0.9726859373214173,-0.13307838857407078,-18.919031990235464,-0.1600055578667408
0.188125,0.018124254097432582,0.0908670694772864,-0.9836048719533663,0.0021844949889814093,-20.6624387183374,-0.14356515473915896
0.19624999999999998,0.02541163960418345,0.06646238801484025,-0.9753464310538339,0.1383664926459007,-22.95592034183882,-0.1302864949321219
0.20437500000000003,0.025878341253505834,0.04179957185387515,-0.9477692958749069,0.27256933694766616,-26.167426204763977,-0.12083291922656962
0.21250000000000002,0.019768058231089177,0.018735059701776312,-0.901245985773866,0.4018579440606259,-31.297257069148014,-0.115596056104702
0.22062500000000002,0.007835497904301984,-0.001014289352891007,-0.8366688613045044,0.5233800214142531,-42.0464972587201,-0.11467159410646266
0.22875,-0.00871386254610168,-0.01601523623302219,-0.7554193737634297,0.6344831126239991,-34.78313910368397,-0.11785739281229739
0.236875,-0.028325914241547876,-0.025236735301710105,-0.6593041380968421,0.7328157023481535,-28.41863693584238,-0.12467439662462479
0.245,-0.04923048166209309,-0.028130669081862576,-0.5504665946912225,0.8164017689510726,-24.928224177235077,-0.13440844360314097
0.253125,-0.06958943206042047,-0.024667945019175106,-0.43128636409818044,0.8836829166759312,-22.63508157364526,-0.14616901354993841
0.26125,-0.0876448580908095,-0.015329326251985716,-0.3042792332066484,0.9335277734069465,-21.01460782697913,-0.158959562157157
0.26937500000000003,-0.10185385065945433,-0.0010557277273321453,-0.1720090910645411,0.9652134336545509,-19.839984388034694,-0.17175349052751504
0.2775,-0.11100005233005752,0.01683373215555701,-0.037019700316426055,0.9783873763151759,-18.9947829998708,-0.18356995450580393
0.285625,-0.11427637494664655,0.03674621059816079,0.0982101128558327,0.9730200228480292,-18.41354890331052,-0.19354442598496874
0.29375,-0.11133693221465989,0.056932856691336464,0.23128852925288546,0.9493579679072567,-18.058392692928507,-0.2009899073056513
0.301875,-0.10231871852783164,0.07561203367203612,0.35991431001289215,0.9078863035386644,-17.90852420012703,-0.2054457120784914
0.31,-0.08783467451804011,0.09109218482434767,0.48186864642104804,0.8493058867557544,-17.955349939041415,-0.2067115805285696
0.318125,-0.06893975305235785,0.10188992436738326,0.5950034833108556,0.7745283307993749,-18.2003920421564,-0.2048655218777669
0.32625,-0.04707096221206601,0.10683947416986893,0.6972348801196979,0.6846882590437371,-18.654930328540303,-0.20026420617120277
0.334375,-0.023961782969211566,0.10518904844759336,0.7865493366362025,0.5811691587326521,-19.340879528859926,-0.19352508695562345
0.34249999999999997,-0.0015315103343723775,0.09667840501865657,0.8610293581853239,0.46563619633255093,-20.292320752714414,-0.18548990022534984
0.350625,0.01824852048042617,0.08159006403686299,0.918901813350775,0.34006687937695035,-21.555261141398102,-0.17716993655142083
0.35875,0.03350695309975795,0.060765456961074334,0.9586088567578702,0.20676890074135623,-23.173895781241264,-0.1696746559550042
0.366875,0.04263362876262213,0.03557746804998525,0.9788965859891398,0.06837444575013497,-25.109725919659887,-0.16412683469610784
0.375,0.04443631699454841,0.00785331517888168,0.9789117832545127,-0.07219776998222027,-26.911665934183574,-0.1615693661088015
0.383125,0.03827549278404995,-0.02025313349907056,0.958293071373368,-0.21181717047509008,-27.269517654317582,-0.16287077129855065
0.39125,0.024158356643031995,-0.04643313124420444,0.9172408344642232,-0.3472508611427345,-25.623030341957097,-0.16863795458097533
0.399375,0.0027756761111396378,-0.06842423036815257,0.8565513959330977,-0.4752990366240911,-23.288660807646828,-0.17914527247747525
0.40750000000000003,-0.024528507922746537,-0.08421928324775164,0.7776056157928958,-0.5929409024547134,-21.13817599563129,-0.19428820923201645
0.415625,-0.05585468806911241,-0.09225829464625329,0.6823096195705749,-0.6974721023100329,-19.34370282283671,-0.21356778815652416
0.42375,-0.08890309713501279,-0.09157967363163272,0.5729941111560866,-0.7866149927121188,-17.88062991781139,-0.236108591321321
0.431875,-0.12116754302960618,-0.08191378100163092,0.45228640841164375,-0.8585876381132508,-16.69759958857301,-0.2607095301072172
0.44,-0.150144547094695,-0.06371118818925617,0.3229739769477827,-0.9121249949065585,-15.750775396021641,-0.28592307167544184
0.448125,-0.1735349508323358,-0.038108122166275085,0.1878788010207346,-0.9464544123733708,-15.007720809905368,-0.31015614830471744
0.45625,-0.18942000967317701,-0.006839547469079989,0.04975866216039286,-0.9612351835761233,-14.445824371040324,-0.33178481900370255
0.464375,-0.19640130391020358,0.02788547426522107,-0.08875445527341982,-0.9564769328125062,-14.05043433740991,-0.34927488407735796
0.4725,-0.19370122725644828,0.0635314735256672,-0.22517540953078716,-0.9324536257063538,-13.813619402872286,-0.36130169949653873
0.480625,-0.18122636931883243,0.0973959263433686,-0.3571493366984401,-0.8896293290135189,-13.733623668461217,-0.3668638281056636
0.48875,-0.15959859705945023,0.12677394264804567,-0.48240560223421836,-0.8286093982221574,-13.814985406839304,-0.3653862991274184
0.496875,-0.13015774603091512,0.14912701432789202,-0.5986943546358354,-0.7501273627664262,-14.069366185614989,-0.35680963398043075
0.505,-0.09493596598545834,0.16225795103408938,-0.7037208697518564,-0.6550738146676923,-14.51727552306295,-0.34166013962008857
0.513125,-0.056597915846083945,0.16449447265891673,-0.795095501412777,-0.544568899869608,-15.191058803075752,-0.32109523422308334
0.52125,-0.018334741793114014,0.15488008494416405,-0.8703191324001915,-0.4200738851109343,-16.139649433230996,-0.29691504648543704
0.529375,0.01630458967119796,0.13336222798909628,-0.9268246186478232,-0.28352895001224826,-17.434909507084424,-0.2715289336027313
0.5375000000000001,0.043660363494720224,0.10095474773776537,-0.9620918750850569,-0.1374936723423003,-19.172832453304384,-0.24786411018858479
0.545625,0.06029414458534054,0.05983705231127992,-0.9738453120687872,0.014744938602619446,-21.417121000178007,-0.2292049421745378
0.5537500000000001,0.06339215576058896,0.013341361904011407,-0.9603251851233372,0.16914067134495672,-23.77106837516874,-0.21895741143305908
0.561875,0.05119658735314103,-0.03421965591556787,-0.9205996858381839,0.32097589901270257,-24.21123035054015,-0.22034487240005235
0.5700000000000001,0.02338966793899062,-0.07791194895359674,-0.8548579705897085,0.46509605993174247,-21.793160022574956,-0.23605770686594
0.5781250000000001,-0.018664037300297472,-0.1127104121989859,-0.7646070191542816,0.5962839323450276,-18.843234903498153,-0.26789720642534615
0.58625,-0.07190272249557633,-0.13413001240325229,-0.6527002188082741,0.7097217026140027,-16.352452861606633,-0.31646672296117473
0.5943750000000001,-0.1318209266994983,-0.13884102610654775,-0.523159603250831,0.8014494005516609,-14.35883515019962,-0.38096413199961277
0.6025,-0.19296290914890327,-0.12513885854040588,-0.3808095358139903,0.8687145085056068,-12.765901552316475,-0.4591154772798951
0.6106250000000001,-0.24955932435293574,-0.09317172913566896,-0.23079613793545195,0.9101304474282298,-11.489813287934671,-0.5472630583318687
0.61875,-0.29617526264600313,-0.044897499302549555,-0.07809939168792131,0.925614179920883,-10.47035366234891,-0.6405909707346398
0.6268750000000001,-0.3282496515145801,0.01618503645614654,0.07285945715648341,0.9161329082738362,-9.665368818268847,-0.7334480617300597
0.635,-0.34245651272754674,0.08543548991530422,0.21844781480886696,0.8833323795659952,-9.045667124617514,-0.819720022305338
0.6431250000000001,-0.33688267419164664,0.15749690826175647,0.3558681726889311,0.8291321641904468,-8.591928547082654,-0.8932101720584609
0.6512500000000001,-0.31106940633099495,0.2266664238969874,0.4830378319489398,0.7553602991702659,-8.293222558758073,-0.9480081910841
0.659375,-0.2659943051429492,0.2871753617456838,0.5983363617613943,0.6634752243654265,-8.14677005932166,-0.9788513434723549
0.6675000000000001,-0.20407486414390028,0.33339081349964256,0.7002536779206591,0.5544026811494313,-8.158880583583596,-0.9815085525911366
0.675625,-0.1292626150450093,0.35999712825670344,0.786959590317883,0.42851050809448626,-8.347356190123502,-0.9532412587775292
0.6837500000000001,-0.04726838914122731,0.3622635988400576,0.855806438502135,0.28576109786241305,-8.74618891694054,-0.8934141564834817
0.691875,0.0340963509656255,0.3365597509606857,0.9027884690577501,0.12612076194900035,-9.414410231409214,-0.804337491483194
0.7000000000000001,0.1045924910409021,0.2813355555877581,0.9220434274162207,-0.04964173272857716,-10.453268646008683,-0.6924021395258995
0.7081250000000001,0.151597200979372,0.19878897699942283,0.9056338327443181,-0.23860820864258286,-12.041285385412216,-0.5694766249772444
0.71625,0.16123719419948232,0.09724558698402841,0.8441124639336433,-0.43376663313806646,-14.50333081686108,-0.4542979726511769
0.7243750000000001,0.12166359368655241,-0.00640297774100369,0.7286551839536245,-0.6218774419165533,-18.28477488825155,-0.3731349898839108
0.7325,0.029185426502758283,-0.08618089943363931,0.5553810170191522,-0.7825196141197894,-20.82025445978919,-0.3584175448091099
0.7406250000000001,-0.1040953628947987,-0.11160334666692945,0.3310601374728793,-0.8906455338004708,-16.32809038503017,-0.44384262209581365
0.74875,-0.24618586916563048,-0.0590686930535993,0.076690743428255,-0.9241110676095531,-11.931650566182682,-0.6557087202812617
0.7568750000000001,-0.35091390639428305,0.07411910144263577,-0.17576584125213265,-0.8734088608004018,-8.906435133013929,-1.003235556785116
0.7650000000000001,-0.37334850554306515,0.2626801633107828,-0.3938296099178386,-0.746484703931033,-6.81123177881548,-1.4731195177535201
0.7731250000000001,-0.28542195551342964,0.4583630886575367,-0.5551806440011888,-0.564004138745508,-5.352684630720301,-2.0319940975173374
0.7812500000000001,-0.08295575921361356,0.6001846083562725,-0.6506942732305249,-0.34877375754030665,-4.35211803641719,-2.635667068383518
0.789375,0.21196787966835284,0.61805758945058,-0.6784173254906254,-0.11713292656603266,-3.696478372506999,-3.242489720822581
0.7975000000000001,0.43703684816324845,0.4382191960529216,-0.7037968603761379,0.06507350165524053,-4.167589660844503,-3.014083603185011
0.805625,0.5334059392586001,0.12398734485182722,-0.6826861582046515,0.2876314933555815,-5.230311258152694,-2.6059201721351357
0.8137500000000001,0.3562265946643364,-0.22435497007732927,-0.5513282024327303,0.5449597382247825,-7.514565400085696,-2.2116606662995943
0.821875,-0.09429145640619703,-0.2445933084662771,-0.2579213235334516,0.6880275335975526,-11.629372922273312,-2.6768241236002988
0.8300000000000001,-0.2963145862504448,0.12002025762169227,-0.0678374017294464,0.4814167479957121,-9.905185250636261,-6.264186721217304
0.8381250000000001,0.2151554625293115,0.4620783666769137,-0.2171152791176065,0.32180660730448846,-5.853469954998747,-8.218909640477857
0.8462500000000001,0.5530736025788725,0.05423506269191551,-0.22264809474414363,0.4114803479989038,-5.102779143312448,-6.597775491394256
0.8543750000000001,0.3605866989031305,-0.3073840652237784,-0.15155529768609186,0.3756136572831185,-6.487686993650522,-7.850115141521254
0.8625,-0.18509121270253023,-0.4885768313171808,-0.08290083290580891,0.2009913583928657,-5.638913215862016,-13.254137155687609
0.8706250000000001,-0.6346786491837788,-0.11696251056169053,-0.1466713380092419,0.04563134848992143,-3.8038789657752132,-16.271855152147275
0.87875,-0.37343752423041177,0.26849307290252367,-0.182481425546133,0.039948515322112875,-6.74599052530168,-14.572323847718575
0.8868750000000001,0.011702708138954635,0.050310027740511264,-0.1357133409125976,0.05784502187306507,-25.738056665351742,-16.62258140764392
0.895,-0.4202584279226395,-0.4988732603878145,-0.10388519065131542,-0.0002003298199748431,-3.7110893153428655,-19.66891102740467
0.9031250000000001,-0.8428605103660705,-0.10972094740570155,-0.10564252437468465,0.009013757788720874,-1.4119068597201923,-19.491722278612794
0.9112500000000001,-0.8191818089067866,0.18738801816922157,-0.09893512332134481,0.015298546641015572,-1.5108882656336788,-19.99036754767176
0.919375,-0.628627458447154,0.5108414643763147,-0.07352519104043488,-0.005412378619389776,-1.8300912293572855,-22.64780670265969
0.9275000000000001,-0.36278090703195043,0.7973426901564921,-0.014657735232018106,-0.051942115720986066,-1.149978138840298,-25.356844753193176
0.935625,-0.13669275550393736,0.860822951350456,-0.016349408778878635,-0.07335372822623759,-1.1935726592745461,-22.480997285931256
0.9437500000000001,0.10502519976910062,0.7863340275820584,-0.01766174999249865,-0.09891295841318912,-2.0110673145737485,-19.958631005893846
0.951875,0.32769147981716107,0.5955492901648043,-0.040106636426289734,-0.10869614302751578,-3.3530100310291204,-18.72137668974632
0.9600000000000001,-0.0006390101495042989,-0.0034682394307270314,0.022944318295172298,-0.20943537998894554,-49.05283711977599,-13.527185714599954
0.9681250000000001,-0.3723654293270223,0.21658465866912077,-0.09051807762233305,-0.30639679939404524,-7.315041041244922,-9.910911586011661
0.9762500000000001,-0.03857908900953056,0.4205033981676992,-0.13452146811102558,-0.2139064687478893,-7.488207586739259,-11.94825476289726
0.9843750000000001,0.3130756652521248,-0.09507934559093888,-0.0949148610592414,-0.31673038107963697,-9.703871451933484,-9.612727074833426
0.9925,-0.2752441452008271,-0.3515117475644929,-0.41423869883582654,-0.2871162780105599,-7.004494523789912,-5.951159206018781
1.000625,-0.6726158574522461,0.1415490242149977,-0.4747409277134959,0.07568503580469205,-3.2564578480528357,-6.361865747047676
1.00875,-0.5398579311737441,0.4896779380172984,-0.35007431545255957,0.321057549840622,-2.747165333618919,-6.466032015481929
1.016875,-0.2926146930784801,0.6815676027885093,-0.15810192923778427,0.3784769116606398,-2.595127602524126,-7.740681778037066
1.0250000000000001,-0.01724114684338537,0.7711718797088085,0.001102101508822843,0.3149655642959757,-2.254806071938917,-10.034685340999722
1.033125,0.3865345361872607,0.7116598640925046,-0.13306242505647498,0.2300402132687932,-1.8318308791821611,-11.510470201869367
1.04125,0.6747946718530317,0.4020022629985455,-0.08917791031888339,0.31663380016874365,-2.097474489641722,-9.657339550999037
1.049375,0.6669260116803176,-0.20696685768882891,0.010957814409140657,0.26607305097074757,-3.119135154492427,-11.492622470543562
1.0575,0.1834663961172165,-0.6476574753989157,0.08464869167866047,0.17532282347778,-3.4378664953146827,-14.213207607527467
1.065625,-0.6197539675170926,-0.4628322094175817,-0.033707246603131014,0.13406042283743236,-2.2307472971060767,-17.187762342060815
1.07375,-0.8660639415110775,0.14284956078660105,-0.0224200399226352,0.13616259249228846,-1.1324271799455707,-17.2026669005157
1.0818750000000001,-0.7060375957992848,0.593242621602106,0.01616815047114835,0.1005002812057055,-0.703635243745011,-19.845683315429827
1.09,-0.4531785877059498,0.8255320105464371,0.036240991824052354,0.07076813014347359,-0.5213810980064769,-21.991772654737197
1.098125,-0.27304983985801073,0.8932272575821742,0.03880258833288683,0.0603319500939423,-0.5927879311301802,-22.88565237929629
1.1062500000000002,-0.07460906174828826,0.9318491063302212,0.015710317999083616,0.04189427618175122,-0.5853365431128656,-26.985479735055527
1.1143750000000001,0.11528526494963749,0.9474366850137215,-0.02471296519337115,0.01999947029561978,-0.4051644214779682,-29.953736690631505
1.1225,0.2583954432300746,0.9268725947868282,-0.03717680237379646,0.02506385606582137,-0.33454203631938434,-26.96736639576626
1.130625,0.35387387855723307,0.8950123779521583,-0.046063101958198426,0.03179181373676431,-0.3326058309783282,-25.041049298777473
1.1387500000000002,0.3810632020315552,0.8584687787903609,-0.05147830115838122,0.03816610121770171,-0.5444387145081158,-23.865105357188
1.146875,0.4276168344427759,0.8200911098654664,-0.04464209497065619,0.03373818608036172,-0.6782791823829226,-25.042917100018855
1.155,0.5247555795126306,0.7633170431203636,-0.05005324958508565,-0.02398302760835059,-0.6650191741136852,-25.113768966906335
1.1631250000000002,0.5771312228849211,0.7365146945735807,-0.0625850944786414,-0.04028154864098235,-0.5772681359057665,-22.565296518858307
1.1712500000000001,0.5948465863799168,0.7076217560604885,-0.06510810465832137,-0.03584964535224878,-0.6825184354063173,-22.57725703633087
1.179375,0.5895046422115223,0.6093833068389557,-0.06750740635341829,-0.03182657630905732,-1.4335342326274827,-22.541307024045363
1.1875,0.6297838503599946,0.45320177140649937,-0.055638953515002504,-0.029249770574632343,-2.203894097087133,-24.032663455179467
1.1956250000000002,0.7167152724830513,0.035196377423379346,0.00200378013957767,-0.0662403063893069,-2.8826060479485833,-23.57358105659867
1.20375,0.7665422520249792,-0.19438179534511332,0.0247733960324835,-0.10556743767683388,-2.0386204908302337,-19.296589705192797
1.211875,0.8377616301170535,-0.3053378573919189,0.03370363124778325,-0.13915992219725784,-0.9959148911916849,-16.882160845766645
1.22,0.8361085669786918,-0.36513965788495156,0.00895773695137356,-0.2135050590136027,-0.7966557775893229,-13.404198545521712
1.2281250000000001,0.7953592158528109,-0.40809279673897825,-0.08257712733553352,-0.30830584457100935,-0.9737929745086583,-9.919474024125199
1.23625,0.7217886276068018,-0.41477226118777677,-0.2974152698718537,-0.35437164750235156,-1.5925745817907604,-6.6951498525377415
1.244375,0.6661326554052388,-0.3561463373898407,-0.556906988597336,-0.18138374294770573,-2.436888380027225,-4.646483287940494
1.2525000000000002,0.6847926103064911,-0.29463737418270003,-0.5960133789380354,0.13622517486737365,-2.5511888648266234,-4.273731973630187
