freq_thz,s11_real,s11_imag,s21_real,s21_imag,s11_db,s21_db
0.05,-0.05972252613607907,-0.05868668712331304,0.6814566704458511,-0.7188394404993754,-21.542257706440594,-0.08280821484339458
0.058125,-0.07459861357681793,-0.05667405272906893,0.5806514272689131,-0.8008017047307947,-20.566587804786796,-0.0946604503811008
0.06625,-0.0884827026511192,-0.051022019031340654,0.4703379273816932,-0.8687471242166246,-19.81614308576138,-0.10577178949244737
0.074375,-0.10050396985778498,-0.042112223756422304,0.3524381562761869,-0.9216779416700462,-19.25385130943071,-0.11573544480145592
0.0825,-0.10991928955158373,-0.030527343681279337,0.22894180275715786,-0.9588506533944252,-18.855835602948176,-0.12419116930382458
0.09062500000000001,-0.11615675979240601,-0.0170118794257689,0.10187749859196704,-0.9797653826769384,-18.606941549057122,-0.13085361674783966
0.09875,-0.11884814264782823,-0.0024247593485804955,-0.026708204033112755,-0.9841548789979185,-18.498344652930495,-0.13553367699071328
0.106875,-0.11784923413292718,0.012313490977007617,-0.15476584104709415,-0.9719760001524075,-18.526309111053592,-0.13815268548998783
0.115,-0.11324766245899257,0.026276410654654643,-0.28025456672851745,-0.9434055955043062,-18.691684355237193,-0.1387493244544361
0.123125,-0.10535793415496658,0.03858760850457819,-0.4011531955615742,-0.8988415709815498,-18.999984924194376,-0.13747913883537746
0.13125,-0.09470379483189587,0.04847463537208585,-0.5154737999286412,-0.8389086992023238,-19.462073250192518,-0.13460678139942123
0.13937500000000003,-0.08198825672648181,0.055318144406981386,-0.6212805508843123,-0.7644675597702995,-20.095647344717932,-0.13049134784678365
0.14750000000000002,-0.06805207293330451,0.05869359201566574,-0.7167157347896134,-0.6766239778879309,-20.928024865353137,-0.12556545993183837
0.155625,-0.05382207486092653,0.05840260677791836,-0.8000337725041068,-0.5767356035634007,-22.001303321259556,-0.12030909745460312
0.16375,-0.04025163747535583,0.0544912127090254,-0.8696427021700056,-0.46641196837100046,-23.38235895529938,-0.11521955316010343
0.171875,-0.028256518633402537,0.047252479820565275,-0.924151111738017,-0.3475045806954916,-25.18381439831984,-0.110779254988716
0.18,-0.018650276769116337,0.0372119906027028,-0.9624171316810786,-0.22208442863031852,-27.613104460546868,-0.10742351741286879
0.188125,-0.01208419130985449,0.025095773464836258,-0.9835950665448334,-0.09240561718852305,-31.102359357916253,-0.1055104868966685
0.19624999999999998,-0.008996868664129045,0.011781967586484508,-0.9871747916694491,0.03914437662707032,-36.58054503758452,-0.10529557604471951
0.20437500000000003,-0.009578342430631707,-0.0017607630545137132,-0.9730093334358839,0.1701054535100443,-40.22985878504085,-0.10691249375128586
0.21250000000000002,-0.013752412234910347,-0.014543447713977626,-0.9413271225301915,0.2980125741947703,-33.97244919167172,-0.11036256235524884
0.22062500000000002,-0.021179304417326534,-0.02562989771342517,-0.8927271308382501,0.4204651444212791,-29.564590917773277,-0.11551339473255184
0.22875,-0.031278718123117714,-0.03420645856736801,-0.8281571908585993,0.5351925042241089,-26.678767673952688,-0.12210725024269502
0.236875,-0.04327127436592621,-0.03964256703769591,-0.7488778736007722,0.6401104410462107,-24.629448891442003,-0.12977859130176764
0.245,-0.056234655059316616,-0.04153732792105191,-0.6564159835349788,0.7333649594264637,-23.10896698689056,-0.13807962268691448
0.253125,-0.06916956615617897,-0.039748900227372284,-0.5525127225309683,0.8133613943634805,-21.962422632887538,-0.14651199986146662
0.26125,-0.08107020354738516,-0.03440524963117401,-0.4390717375854841,0.8787790012851413,-21.103566502570207,-0.15456249552969473
0.26937500000000003,-0.0909941013071686,-0.025896472815448584,-0.31811162889750255,0.9285730361925639,-20.481500937514987,-0.16174023023470527
0.2775,-0.09812692684545449,-0.014850194793156,-0.191726225385929,0.9619677688981647,-20.065892522019162,-0.16761308074514927
0.285625,-0.10183871404435342,-0.0020923709856146516,-0.0620542843167199,0.9784446793448076,-19.839908943357326,-0.1718410311619778
0.29375,-0.10172895169812443,0.011403788254626424,0.06874149385454507,0.977730220891237,-19.796873709987004,-0.17420446902871742
0.301875,-0.09765868908097593,0.024577986010355313,0.19848789166531414,0.9597870390053449,-19.939065004343227,-0.1746257022502891
0.31,-0.08976829887732568,0.03634938182183211,0.3250101473621631,0.9248115094951219,-20.27814522535271,-0.17318225257465636
0.318125,-0.07847977417147174,0.045686798707933504,0.44614050050264475,0.873239032048616,-20.83737787131584,-0.1701107645191985
0.32625,-0.06448255277811339,0.05167968302496363,0.5597307310140346,0.8057568170383997,-21.656562902433002,-0.16580067805815762
0.334375,-0.048702050698590224,0.05360643266375509,0.663672898406544,0.7233220865871951,-22.802098494572896,-0.16077719173151117
0.34249999999999997,-0.03225056504600071,0.050996012330968954,0.7559316018420911,0.627181860532193,-24.38816034344235,-0.1556735388841114
0.350625,-0.016361162433985506,0.043678030644555645,0.8345895018867105,0.5188890539814086,-26.624492974643083,-0.15119325092888544
0.35875,-0.002306689886315101,0.0318159515712091,0.8979056384187292,0.400308768146209,-29.924333184807928,-0.14806389328182637
0.366875,0.008691944454127935,0.015918203422551472,0.9443834563194894,0.273608716436336,-34.82884502026561,-0.14698468771898032
0.375,0.015561856132345503,-0.0031770472926499313,0.9728427959270636,0.1412289310953122,-35.98143007876081,-0.14857137542147716
0.383125,0.017470319868074242,-0.024345604706891552,0.9824879555381006,0.005828298759633787,-30.467620914680044,-0.15330247096095537
0.39125,0.01390353427460887,-0.046248518128057775,0.9729628774910076,-0.1297911500052356,-26.322279345782032,-0.16147152522596747
0.399375,0.004722844671397837,-0.06742638984085428,0.9443850192994058,-0.26277746790120116,-23.402146488321563,-0.17314999010669133
0.40750000000000003,-0.009808884961611537,-0.08640872136849335,0.8973517118673333,-0.3903313632557488,-21.213241978542218,-0.18816466726586492
0.415625,-0.029034738078507868,-0.10182779940296084,0.8329165074830014,-0.5098077034510501,-19.50320135729245,-0.20609255025250475
0.42375,-0.05194483780338404,-0.11252573167533479,0.7525374835563545,-0.6188051189242918,-18.136001193256934,-0.22627428486563278
0.431875,-0.07724665002508886,-0.117644234896578,0.6580037404873823,-0.7152344798599652,-17.031766732090095,-0.24784572901785284
0.44,-0.10345677607238478,-0.11668942421570193,0.5513494853942069,-0.7973603164805315,-16.14041318113304,-0.26978548024801774
0.448125,-0.1290047526417622,-0.10956749756976963,0.4347665039116537,-0.8638135116614936,-15.429168689488444,-0.29097500639843366
0.45625,-0.15233936655471383,-0.09659097548614284,0.3105253322157371,-0.9135779034514544,-14.876211692947976,-0.3102673078772556
0.464375,-0.17202947310687386,-0.0784582334937412,0.18091334526270986,-0.9459569947076498,-14.46725970204085,-0.32655986812755977
0.4725,-0.1868536826221814,-0.05621091716167428,0.048194857277167526,-0.96052928531467,-14.193718831952513,-0.33886789741105805
0.480625,-0.19587582508672938,-0.031174305464435493,-0.08540517066842822,-0.9571016929749112,-14.051747391440038,-0.34639434658579615
0.48875,-0.1985051623530395,-0.004884985907580891,-0.21769559445331274,-0.9356702714185603,-14.041934614537436,-0.3485936391323041
0.496875,-0.19454143647556327,0.020991229000207376,-0.3464964659657849,-0.8963962576258847,-14.169486367489032,-0.3452263460444832
0.505,-0.18420481720701934,0.04474980834739479,-0.4696065606451735,-0.8396036313926606,-14.444949196128146,-0.3364019836701851
0.513125,-0.16814968864362323,0.06474625109486017,-0.5847703368134609,-0.7658019476039827,-14.885659342237727,-0.32260672284169367
0.52125,-0.14745928464951832,0.07950304627558356,-0.6896552068675184,-0.6757351198156701,-15.518353403643406,-0.3047121533396279
0.529375,-0.12361598897461419,0.08782350344249183,-0.7818509208083265,-0.5704529051482627,-16.383877302568038,-0.28396058393722184
0.5375000000000001,-0.09844047621986023,0.0889080860552205,-0.8589025691429227,-0.45139695911722255,-17.54606406283745,-0.26192205105958216
0.545625,-0.07399284546500359,0.08246428870846817,-0.9183863737163748,-0.3204877489223539,-19.10967881950892,-0.2404187510533537
0.5537500000000001,-0.052431620355214335,0.06879572790372704,-0.9580321601679466,-0.18019324733912537,-21.259865339905218,-0.22141452357538946
0.561875,-0.03583274881518726,0.04885156638721268,-0.9758877430398947,-0.03355690495467679,-24.352793356857237,-0.20687067205162252
0.5700000000000001,-0.0259803548948384,0.024215961557158064,-0.9705090818611062,0.11583676543872357,-28.9915005352291,-0.19857479019200425
0.5781250000000001,-0.02415221451209603,-0.0029787278602900376,-0.9411483580354373,0.2639734656340486,-32.27529920857818,-0.19795570519137595
0.58625,-0.0309322795680836,-0.030220511687483593,-0.8879040686229268,0.4065976229439223,-27.28138596140611,-0.2059037492660436
0.5943750000000001,-0.046085754610727,-0.05485746352045634,-0.8117972570017252,0.5394597511391268,-22.896085924947,-0.22261944568573272
0.6025,-0.06852600057632201,-0.07438045708863089,-0.7147487913921307,0.6585861235557003,-19.901980220978473,-0.24751361324763088
0.6106250000000001,-0.09638689145969029,-0.08670827578596985,-0.5994530039320395,0.7605233482806986,-17.744643770952525,-0.27917712569234193
0.61875,-0.12719336412360646,-0.09043201773874567,-0.469167506538097,0.8425118910837465,-16.13392221030277,-0.3154299977142526
0.6268750000000001,-0.15810385570084223,-0.08498513690388715,-0.3274597353995788,0.9025569519842289,-14.918838631910734,-0.3534495527379429
0.635,-0.18618791739044444,-0.0707234457930087,-0.1779611913318943,0.9393878389794564,-14.01562472280225,-0.3899693268835127
0.6431250000000001,-0.208703859204936,-0.04891915309263723,-0.02417833619194863,0.9523207263209106,-13.377108512818785,-0.42153673661713975
0.6512500000000001,-0.22335341770867526,-0.02168727214415551,0.1306023935783689,0.9410580371413989,-12.979394006290473,-0.4448195372029744
0.659375,-0.2285081701977877,0.008133396759907551,0.28329323874690765,0.9054682702631253,-12.81646677600321,-0.45695802169319455
0.6675000000000001,-0.22341947626466463,0.03713070553723763,0.4308591940227409,0.8453952538585987,-12.899253750555332,-0.455969372894848
0.675625,-0.20843403730311066,0.061506608917760906,0.5700508756984286,0.760551075439234,-13.258021848295323,-0.4412186592342022
0.6837500000000001,-0.18523429655264373,0.07733632580484476,0.6970336527543186,0.6505579302474617,-13.947741480680696,-0.4139716403951899
0.691875,-0.15709775235859214,0.08096838965376926,0.8069590230395074,0.5152219962307649,-15.053503709237823,-0.37802820070264576
0.7000000000000001,-0.1291084522682034,0.06966235269404111,0.8935849670419136,0.3551361273903077,-16.67120685755854,-0.3403870724010328
0.7081250000000001,-0.10814562825629262,0.04254930896269447,0.9491596657384382,0.17268218576313954,-18.69475807650075,-0.3117945646390923
0.71625,-0.10233410455661998,0.0018863386161116604,0.9649191177980143,-0.026630847886781595,-19.798116727330857,-0.3068749841265392
0.7243750000000001,-0.11956601770150242,-0.04571376716824058,0.9326040581813986,-0.23287531099205389,-17.855328513008917,-0.3433684645458899
0.7325,-0.16491400753547047,-0.08883302048133397,0.8471360463654856,-0.4313000995863306,-14.548421851260178,-0.4399529819795427
0.7406250000000001,-0.2374674684597408,-0.11259103523171288,0.7097912065709044,-0.6038787426885962,-11.607260134324466,-0.6124363240514709
0.74875,-0.3281023163384401,-0.10225428991151378,0.5301639213636393,-0.733211273553709,-9.277241050982662,-0.8688976846329473
0.7568750000000001,-0.4199271540110805,-0.04806110665871382,0.3250368165015567,-0.8074697413105946,-7.480001770643291,-1.2052775248738201
0.7650000000000001,-0.49169617233517726,0.0511348609820426,0.11391335135933711,-0.8236283590937974,-6.119345174267179,-1.6030836148446648
0.7731250000000001,-0.5221818796637442,0.18719016429328852,-0.08660634057878167,-0.7868578469628293,-5.118526411871515,-2.0297777699108055
0.7812500000000001,-0.49262176480818587,0.3441921264980561,-0.26665452008885604,-0.7063643444714205,-4.423190872497573,-2.440830729640845
0.789375,-0.385756235873919,0.4987511697882292,-0.42362623955446316,-0.5894963328171113,-4.0059665948408645,-2.7821813220661387
0.7975000000000001,-0.18286655958412418,0.6131170603338671,-0.559060738828101,-0.4349211125075217,-3.879023319630142,-2.995513250939323
0.805625,0.13079381971680132,0.6090815674326331,-0.6678081090219423,-0.22345766952416407,-4.110704806630344,-3.0460501546252052
0.8137500000000001,0.49090476055852694,0.312438600390695,-0.6973017539627485,0.0844685471865334,-4.703061676609214,-3.068319523394041
0.821875,0.44473395617592143,-0.38284639144940685,-0.4919596786477,0.4272265539183917,-4.6298774072106195,-3.720743732203575
0.8300000000000001,-0.31445477880482703,-0.6348538169220436,-0.143781595060158,0.5072291593506821,-2.993644804248672,-5.560261855145553
0.8381250000000001,-0.8232242698119386,-0.1825535266100138,0.06622670227068446,0.3488843191482878,-1.4811574682158803,-8.9926340849145
0.8462500000000001,-0.8515599819329432,0.3206721746516643,0.10697480573809913,0.1986116236301309,-0.8197750658897238,-12.933659609234722
0.8543750000000001,-0.6661613417483031,0.6611873597239917,0.08157729123254247,0.10975757977762106,-0.5505383862443134,-17.281216828837387
0.8625,-0.40884289472118845,0.8601356109821114,0.030887224669256762,0.054434691893935634,-0.4239952100526213,-24.070290958960317
0.8706250000000001,-0.1342864170692752,0.9471386761443202,-0.021918033202702907,0.04055036640311497,-0.3852930253162415,-26.72695760548264
0.87875,0.13985681489700727,0.9470065210251712,-0.036695716708683,0.04202091990151428,-0.3792379145631822,-25.069138958011674
0.8868750000000001,0.4030141501308967,0.8675364830852875,-0.030904938379000785,0.038424957178525856,-0.3855994230248006,-26.141091958243685
0.895,0.6379916310276383,0.710152208011065,-0.022837739254905644,0.0342676267102439,-0.40315049980409223,-27.70617026787174
0.9031250000000001,0.8217142626533939,0.47996699364878886,-0.01813420988705178,0.0268518891467108,-0.430719093625721,-29.788630183776036
0.9112500000000001,0.929591859086076,0.19206633086415717,-0.01448820058005929,0.014591981585224597,-0.45260507880623585,-33.73830218974994
0.919375,0.939085777300713,-0.12380549497811089,-0.019961952900076747,-0.008283318559378161,-0.4710594407323115,-33.30596706274279
0.9275000000000001,0.844758691391748,-0.42811375717205363,-0.027520988334410156,-0.02375208190770267,-0.4725663657328569,-28.789110792934395
0.935625,0.6556565210887789,-0.6842819520896091,-0.03169801447001941,-0.019583747134063512,-0.4666211994295454,-28.575206576305455
0.9437500000000001,0.3982467448557628,-0.8615860246230627,-0.033176943219808755,-0.010852224062452929,-0.4530849450311761,-29.141814777944877
0.951875,0.1103989566156961,-0.9448763478874795,-0.0305007072436627,-0.003552829907992509,-0.4336138212768742,-30.255271133148245
0.9600000000000001,-0.17260269586119673,-0.9372721031449167,-0.020845861891670855,-0.005300482785468476,-0.41784702254006123,-33.347520559523296
0.9681250000000001,-0.42417399331552164,-0.8569834197478965,-0.003794008711984469,-0.023273784975373836,-0.3889030543707617,-32.548755570351744
0.9762500000000001,-0.6201148999149187,-0.733204072057672,-0.006239392868954196,-0.035887607980715094,-0.35207518826772694,-28.771780304951278
0.9843750000000001,-0.7673924615349365,-0.5844514842802668,-0.008280925299190039,-0.04608815624957776,-0.31295418188444346,-26.590223935993194
0.9925,-0.8703589741906705,-0.42315474228290323,-0.019509421239898184,-0.043364511466593744,-0.28452950442485925,-26.456805427306254
1.000625,-0.9349251112156417,-0.25938555496101107,-0.0285958474427627,-0.03490027277687407,-0.26241570040812134,-26.912752299487895
1.00875,-0.9667077532601355,-0.1001221424262294,-0.03228593943587919,-0.025319736295282735,-0.24775818426663596,-27.737943782223425
1.016875,-0.9700888573954464,0.05154261349356687,-0.027367609431580217,-0.019901992896633667,-0.25152684401073183,-29.41165927728713
1.0250000000000001,-0.9543283324018064,0.19153953692154294,-0.02602483121983222,-0.013989571351582193,-0.23452885856352798,-30.589857828486963
1.033125,-0.919071655494758,0.3235934406431872,0.002146343977208024,-0.03058275360288235,-0.22548292031470255,-30.26912985675938
1.04125,-0.8782656417580734,0.42920788061362536,0.01728157873207736,-0.04764627586454243,-0.19737519564725942,-25.90266230253734
1.049375,-0.8313236833349695,0.5172645831884559,0.008824370025102696,-0.05330674909200637,-0.18334615990941383,-25.34694643551193
1.0575,-0.776853900598301,0.5967322950636994,-0.004118661318613697,-0.05327994404973473,-0.17913646178723952,-25.442850142362218
1.065625,-0.7159251809034004,0.6680227544663654,-0.015188712267497767,-0.04895577248152395,-0.18270495676863996,-25.804796493380803
1.07375,-0.6486491498901795,0.7306103714673102,-0.022256155262031993,-0.04285773126813026,-0.20207125998753428,-26.32248812992642
1.0818750000000001,-0.5707042793660851,0.7827019259243041,-0.02315207403122987,-0.03861873275206127,-0.2764639809421966,-26.930551915674204
1.09,-0.4808191864728264,0.8319980947813699,-0.01940848153430779,-0.03598403998650061,-0.3460640495188715,-27.76883151124042
1.098125,-0.3626125136358936,0.8813788265074215,0.030472971870809527,-0.03239761090493983,-0.41762810507024295,-27.037282202525006
1.1062500000000002,-0.2658156057209653,0.9238311105559347,0.0733806300402065,-0.038737276820129826,-0.34270757820750175,-21.620775435317697
1.1143750000000001,-0.19571111688771028,0.9512808810517488,0.09653968218584688,-0.05310515276975196,-0.25378639450471896,-19.157788989892804
1.1225,-0.13196513205719795,0.9633570717580273,0.10180403529125441,-0.08956535295114382,-0.24351491813484372,-17.355124123253415
1.130625,-0.06957716697656739,0.9677900569805968,0.08281517101002557,-0.1370161503118372,-0.2619878384631262,-15.912212671307282
1.1387500000000002,-0.009008515498264327,0.9675461749234,0.033029497985716104,-0.17475434157376765,-0.28618952472252196,-14.999004286284684
1.146875,0.05086058766809356,0.9644863598284572,-0.03255779764460928,-0.17938358666113857,-0.3020180761413396,-14.78358827126161
1.155,0.11424732753231728,0.953731159343842,-0.09707222784137227,-0.15932355254447939,-0.3496038921503428,-14.583332593534804
1.1631250000000002,0.18798932138951832,0.9201556628254225,-0.12883750930688256,-0.1300877394961426,-0.5451840159829184,-14.746710658346062
1.1712500000000001,0.1913890992348857,0.8523614631946742,-0.2091132229432681,-0.19044580345382905,-1.173901760961688,-10.969211741782193
1.179375,0.24788974757484636,0.8633784002967921,-0.2744795776323851,-0.10247788161612492,-0.9319557631096188,-10.663064724761869
1.1875,0.3136039965864082,0.8714770190198318,-0.3020254282469892,0.006361717557007885,-0.6660400388852944,-10.397203409645426
1.1956250000000002,0.37030352949700857,0.8558654504840071,-0.29170188571875066,0.0754320224470454,-0.6066530019827772,-10.420099165929372
1.20375,0.39829405212503227,0.8393881879441585,-0.28346910203685505,0.13081002740807893,-0.6388319400526238,-10.111468789169326
1.211875,0.4248382199671242,0.8187905379320172,-0.2692604229219194,0.1832094157132187,-0.7011869054274491,-9.74420265859453
1.22,0.44905307551672696,0.794041027813542,-0.2488090098631008,0.23455553173643398,-0.7979847721570641,-9.321029441110886
1.2281250000000001,0.4699546651099181,0.7636745808065482,-0.22107183942081404,0.28446425344505333,-0.947135664858696,-8.867498345809748
1.23625,0.48706579585906273,0.7238956794460221,-0.18115365645303133,0.32752341551959774,-1.1846810514349795,-8.535983365667088
1.244375,0.49929409882402903,0.6510552649575324,-0.13978489932384522,0.34701209396240323,-1.7187682400805502,-8.540047191642085
